T353C 393:654 SEGGER J-Link V5.00a Log File (0000ms, 1105ms total)
T353C 393:654 DLL Compiled: Jun  9 2015 16:41:14 (0000ms, 1105ms total)
T353C 393:654 Logging started @ 2022-05-21 07:54 (0000ms, 1105ms total)
T353C 393:654 JLINK_SetWarnOutHandler(...) (0000ms, 1105ms total)
T353C 393:654 JLINK_OpenEx(...)
Firmware: J-Link OB-STM32F072-CortexM compiled Jan  7 2019 14:09:37
Hardware: V1.00
Feature(s): GDB, RDI, FlashBP, FlashDL, JFlash, RDDI  returns O.K. (0268ms, 1373ms total)
T353C 393:922 JLINK_GetEmuCaps()  returns 0xB8EA5A33 (0000ms, 1373ms total)
T353C 393:922 JLINK_TIF_GetAvailable(...) (0001ms, 1374ms total)
T353C 393:923 JLINK_SetErrorOutHandler(...) (0000ms, 1374ms total)
T353C 393:923 JLINK_ExecCommand("ProjectFile = "D:\Robomaster\Infantry\Infantry_2022\Half-down-bomb-gimbal\Gimbal_4\Project\JLinkSettings.ini"", ...)  returns 0x00 (0000ms, 1374ms total)
T353C 393:923 JLINK_ExecCommand("Device = STM32F405RG", ...)Device "STM32F405RG" selected.  returns 0x00 (0001ms, 1375ms total)
T353C 393:924 JLINK_ExecCommand("DisableConnectionTimeout", ...)  returns 0x01 (0000ms, 1375ms total)
T353C 393:924 JLINK_GetHardwareVersion()  returns 0x2710 (0000ms, 1375ms total)
T353C 393:924 JLINK_GetDLLVersion()  returns 50001 (0000ms, 1375ms total)
T353C 393:924 JLINK_GetFirmwareString(...) (0000ms, 1375ms total)
T353C 393:924 JLINK_GetDLLVersion()  returns 50001 (0000ms, 1375ms total)
T353C 393:924 JLINK_GetCompileDateTime() (0000ms, 1375ms total)
T353C 393:924 JLINK_GetFirmwareString(...) (0000ms, 1375ms total)
T353C 393:924 JLINK_GetHardwareVersion()  returns 0x2710 (0000ms, 1375ms total)
T353C 393:924 JLINK_TIF_Select(JLINKARM_TIF_SWD)  returns 0x00 (0001ms, 1376ms total)
T353C 393:925 JLINK_SetSpeed(5000) (0000ms, 1376ms total)
T353C 393:925 JLINK_GetId() >0x108 TIF>Found SWD-DP with ID 0x2BA01477 >0x0D TIF> >0x28 TIF> >0x0D TIF> >0x28 TIF> >0x0D TIF> >0x21 TIF> >0x0D TIF> >0x28 TIF> >0x0D TIF> >0x28 TIF> >0x0D TIF> >0x28 TIF> >0x0D TIF> >0x21 TIF> >0x0D TIF> >0x21 TIF> >0x0D TIF> >0x28 TIF> >0x0D TIF> >0x21 TIF> >0x0D TIF> >0x21 TIF> >0x0D TIF> >0x28 TIF> >0x0D TIF> >0x21 TIF> >0x0D TIF> >0x21 TIF> >0x108 TIF>Found SWD-DP with ID 0x2BA01477 >0x0D TIF> >0x21 TIF> >0x0D TIF> >0x28 TIF> >0x0D TIF> >0x28 TIF> >0x0D TIF> >0x21 TIF>
 >0x0D TIF> >0x28 TIF> >0x0D TIF> >0x21 TIF> >0x0D TIF> >0x21 TIF> >0x0D TIF> >0x21 TIF> >0x0D TIF> >0x21 TIF> >0x0D TIF> >0x28 TIF> >0x0D TIF> >0x28 TIF> >0x0D TIF> >0x21 TIF> >0x0D TIF> >0x28 TIF> >0x0D TIF> >0x28 TIF> >0x0D TIF> >0x28 TIF> >0x0D TIF> >0x21 TIF> >0x0D TIF> >0x21 TIF> >0x0D TIF> >0x28 TIF> >0x0D TIF> >0x21 TIF> >0x0D TIF> >0x21 TIF>Found Cortex-M4 r0p1, Little endian. -- CPU_WriteMem(4 bytes @ 0xE0002000) -- CPU_ReadMem(4 bytes @ 0xE000EDF0) -- CPU_ReadMem(4 bytes @ 0xE0002000)
FPUnit: 6 code (BP) slots and 2 literal slots -- CPU_ReadMem(4 bytes @ 0xE000EDFC) -- CPU_ReadMem(4 bytes @ 0xE0001000) -- CPU_WriteMem(4 bytes @ 0xE0001000) -- CPU_ReadMem(4 bytes @ 0xE000ED88) -- CPU_WriteMem(4 bytes @ 0xE000ED88) -- CPU_ReadMem(4 bytes @ 0xE000ED88) -- CPU_WriteMem(4 bytes @ 0xE000ED88)CoreSight components:ROMTbl 0 @ E00FF000 -- CPU_ReadMem(16 bytes @ 0xE00FF000) -- CPU_ReadMem(16 bytes @ 0xE000EFF0) -- CPU_ReadMem(16 bytes @ 0xE000EFE0)
ROMTbl 0 [0]: FFF0F000, CID: B105E00D, PID: 000BB00C SCS -- CPU_ReadMem(16 bytes @ 0xE0001FF0) -- CPU_ReadMem(16 bytes @ 0xE0001FE0)ROMTbl 0 [1]: FFF02000, CID: B105E00D, PID: 003BB002 DWT -- CPU_ReadMem(16 bytes @ 0xE0002FF0) -- CPU_ReadMem(16 bytes @ 0xE0002FE0)ROMTbl 0 [2]: FFF03000, CID: B105E00D, PID: 002BB003 FPB -- CPU_ReadMem(16 bytes @ 0xE0000FF0) -- CPU_ReadMem(16 bytes @ 0xE0000FE0)ROMTbl 0 [3]: FFF01000, CID: B105E00D, PID: 003BB001 ITM -- CPU_ReadMem(16 bytes @ 0xE00FF010)
 -- CPU_ReadMem(16 bytes @ 0xE0040FF0) -- CPU_ReadMem(16 bytes @ 0xE0040FE0)ROMTbl 0 [4]: FFF41000, CID: B105900D, PID: 000BB9A1 TPIU -- CPU_ReadMem(16 bytes @ 0xE0041FF0) -- CPU_ReadMem(16 bytes @ 0xE0041FE0)ROMTbl 0 [5]: FFF42000, CID: B105900D, PID: 000BB925 ETM >0x0D TIF> >0x21 TIF>  returns 0x2BA01477 (0031ms, 1407ms total)
T353C 393:956 JLINK_GetDLLVersion()  returns 50001 (0000ms, 1407ms total)
T353C 393:956 JLINK_CORE_GetFound()  returns 0xE0000FF (0001ms, 1408ms total)
T353C 393:957 JLINK_GetDebugInfo(0x100) -- Value=0xE00FF003  returns 0x00 (0000ms, 1408ms total)
T353C 393:957 JLINK_GetDebugInfo(0x100) -- Value=0xE00FF003  returns 0x00 (0000ms, 1408ms total)
T353C 393:957 JLINK_GetDebugInfo(0x101)  returns 0xFFFFFFFF (0000ms, 1408ms total)
T353C 393:957 JLINK_ReadMemEx(0xE0041FF0, 0x0010 Bytes, ..., AccessWidth = 33554436) -- CPU is running -- CPU_ReadMem(16 bytes @ 0xE0041FF0) - Data: 0D 00 00 00 90 00 00 00 05 00 00 00 B1 00 00 00  returns 0x10 (0000ms, 1408ms total)
T353C 393:957 JLINK_GetDebugInfo(0x102)  returns 0xFFFFFFFF (0000ms, 1408ms total)
T353C 393:957 JLINK_GetDebugInfo(0x103)  returns 0xFFFFFFFF (0000ms, 1408ms total)
T353C 393:957 JLINK_ReadMemEx(0xE0040FF0, 0x0010 Bytes, ..., AccessWidth = 33554436) -- CPU is running -- CPU_ReadMem(16 bytes @ 0xE0040FF0) - Data: 0D 00 00 00 90 00 00 00 05 00 00 00 B1 00 00 00  returns 0x10 (0000ms, 1408ms total)
T353C 393:957 JLINK_GetDebugInfo(0x104)  returns 0xFFFFFFFF (0000ms, 1408ms total)
T353C 393:957 JLINK_GetDebugInfo(0x105)  returns 0xFFFFFFFF (0000ms, 1408ms total)
T353C 393:957 JLINK_GetDebugInfo(0x106)  returns 0xFFFFFFFF (0000ms, 1408ms total)
T353C 393:957 JLINK_GetDebugInfo(0x107)  returns 0xFFFFFFFF (0000ms, 1408ms total)
T353C 393:957 JLINK_GetDebugInfo(0x10C)  returns 0xFFFFFFFF (0000ms, 1408ms total)
T353C 393:957 JLINK_GetDebugInfo(0x01)  returns 0xFFFFFFFF (0000ms, 1408ms total)
T353C 393:957 JLINK_GetDeviceFamily()  returns 14 (0000ms, 1408ms total)
T353C 393:957 JLINK_ReadMemU32(0xE000ED00, 0x0001 Items, ...) -- CPU is running -- CPU_ReadMem(4 bytes @ 0xE000ED00) - Data: 41 C2 0F 41  returns 0x01 (0002ms, 1410ms total)
T353C 393:959 JLINK_GetDebugInfo(0x10F)  returns 0xFFFFFFFF (0000ms, 1410ms total)
T353C 393:959 JLINK_SetResetType(JLINKARM_RESET_TYPE_NORMAL)  returns JLINKARM_RESET_TYPE_NORMAL (0000ms, 1410ms total)
T353C 393:959 JLINK_Reset() -- CPU is running -- CPU_WriteMem(4 bytes @ 0xE000EDF0) -- CPU is running -- CPU_WriteMem(4 bytes @ 0xE000EDFC) >0x35 TIF> -- CPU is running -- CPU_WriteMem(4 bytes @ 0xE000ED0C) -- CPU is running -- CPU_ReadMem(4 bytes @ 0xE000EDF0) -- CPU is running -- CPU_ReadMem(4 bytes @ 0xE000EDF0) -- CPU is running -- CPU_WriteMem(4 bytes @ 0xE000EDF0) -- CPU is running -- CPU_WriteMem(4 bytes @ 0xE000EDFC) -- CPU is running -- CPU_ReadMem(4 bytes @ 0xE000EDF0)
 -- CPU_WriteMem(4 bytes @ 0xE0002000) -- CPU_ReadMem(4 bytes @ 0xE000EDFC) -- CPU_ReadMem(4 bytes @ 0xE0001000) (0021ms, 1431ms total)
T353C 393:980 JLINK_ReadReg(R15 (PC))  returns 0x08000254 (0000ms, 1431ms total)
T353C 393:980 JLINK_ReadReg(XPSR)  returns 0x01000000 (0000ms, 1431ms total)
T353C 393:980 JLINK_Halt()  returns 0x00 (0000ms, 1431ms total)
T353C 393:980 JLINK_ReadMemU32(0xE000EDF0, 0x0001 Items, ...) -- CPU_ReadMem(4 bytes @ 0xE000EDF0) - Data: 03 00 03 00  returns 0x01 (0001ms, 1432ms total)
T353C 393:981 JLINK_WriteU32(0xE000EDF0, 0xA05F0003) -- CPU_WriteMem(4 bytes @ 0xE000EDF0)  returns 0x00 (0001ms, 1433ms total)
T353C 393:982 JLINK_WriteU32(0xE000EDFC, 0x01000000) -- CPU_WriteMem(4 bytes @ 0xE000EDFC)  returns 0x00 (0000ms, 1433ms total)
T353C 393:982 JLINK_GetHWStatus(...)  returns 0x00 (0000ms, 1433ms total)
T353C 393:982 JLINK_GetNumBPUnits(Type = 0xFFFFFF00)  returns 0x06 (0000ms, 1433ms total)
T353C 393:982 JLINK_GetNumBPUnits(Type = 0xF0)  returns 0x2000 (0000ms, 1433ms total)
T353C 393:982 JLINK_GetNumWPUnits()  returns 0x04 (0000ms, 1433ms total)
T353C 393:982 JLINK_GetSpeed()  returns 0x7D0 (0000ms, 1433ms total)
T353C 393:982 JLINK_ReadMemU32(0xE000E004, 0x0001 Items, ...) -- CPU_ReadMem(4 bytes @ 0xE000E004) - Data: 02 00 00 00  returns 0x01 (0001ms, 1434ms total)
T353C 393:983 JLINK_ReadMemU32(0xE000E004, 0x0001 Items, ...) -- CPU_ReadMem(4 bytes @ 0xE000E004) - Data: 02 00 00 00  returns 0x01 (0000ms, 1434ms total)
T353C 393:983 JLINK_WriteMemEx(0xE0001000, 0x001C Bytes, ..., AccessWidth = 33554436) - Data: 01 00 00 00 00 00 00 00 00 00 00 00 00 00 00 00 ... -- CPU_WriteMem(28 bytes @ 0xE0001000)  returns 0x1C (0001ms, 1435ms total)
T353C 393:984 JLINK_ReadReg(R15 (PC))  returns 0x08000254 (0000ms, 1435ms total)
T353C 393:984 JLINK_ReadReg(XPSR)  returns 0x01000000 (0000ms, 1435ms total)
T353C 394:061 JLINK_SetResetType(JLINKARM_RESET_TYPE_NORMAL)  returns JLINKARM_RESET_TYPE_NORMAL (0000ms, 1435ms total)
T353C 394:061 JLINK_Reset() -- CPU_WriteMem(4 bytes @ 0xE000EDF0) -- CPU_WriteMem(4 bytes @ 0xE000EDFC) >0x35 TIF> -- CPU_WriteMem(4 bytes @ 0xE000ED0C) -- CPU_ReadMem(4 bytes @ 0xE000EDF0) -- CPU_ReadMem(4 bytes @ 0xE000EDF0) -- CPU_WriteMem(4 bytes @ 0xE000EDF0) -- CPU_WriteMem(4 bytes @ 0xE000EDFC) -- CPU is running -- CPU_ReadMem(4 bytes @ 0xE000EDF0) -- CPU_WriteMem(4 bytes @ 0xE0002000) -- CPU_ReadMem(4 bytes @ 0xE000EDFC) -- CPU_ReadMem(4 bytes @ 0xE0001000) (0019ms, 1454ms total)
T353C 394:080 JLINK_ReadReg(R15 (PC))  returns 0x08000254 (0000ms, 1454ms total)
T353C 394:080 JLINK_ReadReg(XPSR)  returns 0x01000000 (0000ms, 1454ms total)
T353C 394:081 JLINK_ReadMemEx(0x08000254, 0x003C Bytes, ..., AccessWidth = 33554432)Mis-aligned memory read: Address: 0x08000254, NumBytes: 60, Alignment: 2 (Halfword-aligned)
  ***** Mis-aligned memory read: Address: 0x08000254, NumBytes: 60, Alignment: 2 (Halfword-aligned) -- CPU_ReadMem(128 bytes @ 0x08000240) -- Updating C cache (128 bytes @ 0x08000240) -- Read from C cache (60 bytes @ 0x08000254) - Data: 06 48 80 47 06 48 00 47 FE E7 FE E7 FE E7 FE E7 ...  returns 0x3C (0002ms, 1456ms total)
T353C 395:320 JLINK_ReadReg(R0)  returns 0x00000000 (0000ms, 1456ms total)
T353C 395:320 JLINK_ReadReg(R1)  returns 0x00000000 (0000ms, 1456ms total)
T353C 395:320 JLINK_ReadReg(R2)  returns 0x00000000 (0000ms, 1456ms total)
T353C 395:320 JLINK_ReadReg(R3)  returns 0x00000000 (0000ms, 1456ms total)
T353C 395:320 JLINK_ReadReg(R4)  returns 0x00000000 (0000ms, 1456ms total)
T353C 395:320 JLINK_ReadReg(R5)  returns 0x00000000 (0000ms, 1456ms total)
T353C 395:320 JLINK_ReadReg(R6)  returns 0x00000000 (0000ms, 1456ms total)
T353C 395:320 JLINK_ReadReg(R7)  returns 0x00000000 (0001ms, 1457ms total)
T353C 395:321 JLINK_ReadReg(R8)  returns 0x00000000 (0000ms, 1457ms total)
T353C 395:321 JLINK_ReadReg(R9)  returns 0x00000000 (0000ms, 1457ms total)
T353C 395:321 JLINK_ReadReg(R10)  returns 0x00000000 (0000ms, 1457ms total)
T353C 395:321 JLINK_ReadReg(R11)  returns 0x00000000 (0000ms, 1457ms total)
T353C 395:321 JLINK_ReadReg(R12)  returns 0x00000000 (0000ms, 1457ms total)
T353C 395:321 JLINK_ReadReg(R13 (SP))  returns 0x20003AE0 (0000ms, 1457ms total)
T353C 395:321 JLINK_ReadReg(R14)  returns 0xFFFFFFFF (0000ms, 1457ms total)
T353C 395:321 JLINK_ReadReg(R15 (PC))  returns 0x08000254 (0000ms, 1457ms total)
T353C 395:321 JLINK_ReadReg(XPSR)  returns 0x01000000 (0000ms, 1457ms total)
T353C 395:321 JLINK_ReadReg(MSP)  returns 0x20003AE0 (0000ms, 1457ms total)
T353C 395:321 JLINK_ReadReg(PSP)  returns 0x00000000 (0000ms, 1457ms total)
T353C 395:321 JLINK_ReadReg(CFBP)  returns 0x00000000 (0000ms, 1457ms total)
T353C 395:321 JLINK_ReadReg(FPSCR)  returns 0x00000000 (0007ms, 1464ms total)
T353C 395:328 JLINK_ReadReg(FPS0)  returns 0x00000000 (0000ms, 1464ms total)
T353C 395:328 JLINK_ReadReg(FPS1)  returns 0x00000000 (0000ms, 1464ms total)
T353C 395:328 JLINK_ReadReg(FPS2)  returns 0x00000000 (0000ms, 1464ms total)
T353C 395:328 JLINK_ReadReg(FPS3)  returns 0x00000000 (0000ms, 1464ms total)
T353C 395:328 JLINK_ReadReg(FPS4)  returns 0x00000000 (0000ms, 1464ms total)
T353C 395:328 JLINK_ReadReg(FPS5)  returns 0x00000000 (0000ms, 1464ms total)
T353C 395:328 JLINK_ReadReg(FPS6)  returns 0x00000000 (0000ms, 1464ms total)
T353C 395:328 JLINK_ReadReg(FPS7)  returns 0x00000000 (0000ms, 1464ms total)
T353C 395:328 JLINK_ReadReg(FPS8)  returns 0x00000000 (0000ms, 1464ms total)
T353C 395:328 JLINK_ReadReg(FPS9)  returns 0x00000000 (0000ms, 1464ms total)
T353C 395:328 JLINK_ReadReg(FPS10)  returns 0x00000000 (0000ms, 1464ms total)
T353C 395:328 JLINK_ReadReg(FPS11)  returns 0x00000000 (0000ms, 1464ms total)
T353C 395:328 JLINK_ReadReg(FPS12)  returns 0x00000000 (0000ms, 1464ms total)
T353C 395:328 JLINK_ReadReg(FPS13)  returns 0x00000000 (0000ms, 1464ms total)
T353C 395:328 JLINK_ReadReg(FPS14)  returns 0x00000000 (0000ms, 1464ms total)
T353C 395:328 JLINK_ReadReg(FPS15)  returns 0x00000000 (0000ms, 1464ms total)
T353C 395:328 JLINK_ReadReg(FPS16)  returns 0x00000000 (0000ms, 1464ms total)
T353C 395:328 JLINK_ReadReg(FPS17)  returns 0x00000000 (0000ms, 1464ms total)
T353C 395:328 JLINK_ReadReg(FPS18)  returns 0x00000000 (0000ms, 1464ms total)
T353C 395:328 JLINK_ReadReg(FPS19)  returns 0x00000000 (0000ms, 1464ms total)
T353C 395:328 JLINK_ReadReg(FPS20)  returns 0x00000000 (0000ms, 1464ms total)
T353C 395:328 JLINK_ReadReg(FPS21)  returns 0x00000000 (0000ms, 1464ms total)
T353C 395:328 JLINK_ReadReg(FPS22)  returns 0x00000000 (0000ms, 1464ms total)
T353C 395:328 JLINK_ReadReg(FPS23)  returns 0x00000000 (0000ms, 1464ms total)
T353C 395:328 JLINK_ReadReg(FPS24)  returns 0x00000000 (0000ms, 1464ms total)
T353C 395:328 JLINK_ReadReg(FPS25)  returns 0x00000000 (0000ms, 1464ms total)
T353C 395:328 JLINK_ReadReg(FPS26)  returns 0x00000000 (0001ms, 1465ms total)
T353C 395:329 JLINK_ReadReg(FPS27)  returns 0x00000000 (0000ms, 1465ms total)
T353C 395:329 JLINK_ReadReg(FPS28)  returns 0x00000000 (0000ms, 1465ms total)
T353C 395:329 JLINK_ReadReg(FPS29)  returns 0x00000000 (0000ms, 1465ms total)
T353C 395:329 JLINK_ReadReg(FPS30)  returns 0x00000000 (0000ms, 1465ms total)
T353C 395:329 JLINK_ReadReg(FPS31)  returns 0x00000000 (0000ms, 1465ms total)
T353C 395:347 JLINK_ReadMemEx(0x200002A8, 0x0004 Bytes, ..., AccessWidth = 33554432)Mis-aligned memory read: Address: 0x200002A8, NumBytes: 4, Alignment: 2 (Halfword-aligned)
  ***** Mis-aligned memory read: Address: 0x200002A8, NumBytes: 4, Alignment: 2 (Halfword-aligned) -- CPU_ReadMem(64 bytes @ 0x20000280) -- Updating C cache (64 bytes @ 0x20000280) -- Read from C cache (4 bytes @ 0x200002A8) - Data: 00 00 00 00  returns 0x04 (0001ms, 1466ms total)
T353C 395:356 JLINK_ReadMemEx(0x200001EC, 0x0004 Bytes, ..., AccessWidth = 33554432)Mis-aligned memory read: Address: 0x200001EC, NumBytes: 4, Alignment: 2 (Halfword-aligned)
  ***** Mis-aligned memory read: Address: 0x200001EC, NumBytes: 4, Alignment: 2 (Halfword-aligned) -- CPU_ReadMem(64 bytes @ 0x200001C0) -- Updating C cache (64 bytes @ 0x200001C0) -- Read from C cache (4 bytes @ 0x200001EC) - Data: 00 00 D3 45  returns 0x04 (0001ms, 1467ms total)
T353C 395:359 JLINK_ReadMemEx(0x200001F0, 0x0004 Bytes, ..., AccessWidth = 33554432)Mis-aligned memory read: Address: 0x200001F0, NumBytes: 4, Alignment: 2 (Halfword-aligned)
  ***** Mis-aligned memory read: Address: 0x200001F0, NumBytes: 4, Alignment: 2 (Halfword-aligned) -- Read from C cache (4 bytes @ 0x200001F0) - Data: 00 A8 E3 45  returns 0x04 (0000ms, 1467ms total)
T353C 395:362 JLINK_ReadMemEx(0x20000604, 0x0004 Bytes, ..., AccessWidth = 33554432)Mis-aligned memory read: Address: 0x20000604, NumBytes: 4, Alignment: 2 (Halfword-aligned)
  ***** Mis-aligned memory read: Address: 0x20000604, NumBytes: 4, Alignment: 2 (Halfword-aligned) -- CPU_ReadMem(64 bytes @ 0x20000600) -- Updating C cache (64 bytes @ 0x20000600) -- Read from C cache (4 bytes @ 0x20000604) - Data: 7E 6E EF C0  returns 0x04 (0001ms, 1468ms total)
T353C 395:368 JLINK_ReadMemEx(0x20000608, 0x0004 Bytes, ..., AccessWidth = 33554432)Mis-aligned memory read: Address: 0x20000608, NumBytes: 4, Alignment: 2 (Halfword-aligned)
  ***** Mis-aligned memory read: Address: 0x20000608, NumBytes: 4, Alignment: 2 (Halfword-aligned) -- Read from C cache (4 bytes @ 0x20000608) - Data: 27 52 65 41  returns 0x04 (0000ms, 1468ms total)
T353C 395:385 JLINK_ReadMemEx(0x200002BC, 0x0004 Bytes, ..., AccessWidth = 33554432)Mis-aligned memory read: Address: 0x200002BC, NumBytes: 4, Alignment: 2 (Halfword-aligned)
  ***** Mis-aligned memory read: Address: 0x200002BC, NumBytes: 4, Alignment: 2 (Halfword-aligned) -- Read from C cache (4 bytes @ 0x200002BC) - Data: 00 00 00 00  returns 0x04 (0000ms, 1468ms total)
T353C 395:389 JLINK_ReadMemEx(0x200002C0, 0x0004 Bytes, ..., AccessWidth = 33554432)Mis-aligned memory read: Address: 0x200002C0, NumBytes: 4, Alignment: 2 (Halfword-aligned)
  ***** Mis-aligned memory read: Address: 0x200002C0, NumBytes: 4, Alignment: 2 (Halfword-aligned) -- CPU_ReadMem(64 bytes @ 0x200002C0) -- Updating C cache (64 bytes @ 0x200002C0) -- Read from C cache (4 bytes @ 0x200002C0) - Data: 00 00 00 00  returns 0x04 (0002ms, 1470ms total)
T353C 395:422 JLINK_ReadMemEx(0x200002AC, 0x0004 Bytes, ..., AccessWidth = 33554432)Mis-aligned memory read: Address: 0x200002AC, NumBytes: 4, Alignment: 2 (Halfword-aligned)
  ***** Mis-aligned memory read: Address: 0x200002AC, NumBytes: 4, Alignment: 2 (Halfword-aligned) -- Read from C cache (4 bytes @ 0x200002AC) - Data: 00 00 00 00  returns 0x04 (0000ms, 1470ms total)
T353C 395:429 JLINK_ReadMemEx(0x200002D0, 0x0004 Bytes, ..., AccessWidth = 33554432)Mis-aligned memory read: Address: 0x200002D0, NumBytes: 4, Alignment: 2 (Halfword-aligned)
  ***** Mis-aligned memory read: Address: 0x200002D0, NumBytes: 4, Alignment: 2 (Halfword-aligned) -- Read from C cache (4 bytes @ 0x200002D0) - Data: 00 00 00 00  returns 0x04 (0000ms, 1470ms total)
T353C 395:441 JLINK_ReadMemEx(0x200002A4, 0x0002 Bytes, ..., AccessWidth = 33554432)Mis-aligned memory read: Address: 0x200002A4, NumBytes: 2, Alignment: 2 (Halfword-aligned)
  ***** Mis-aligned memory read: Address: 0x200002A4, NumBytes: 2, Alignment: 2 (Halfword-aligned) -- Read from C cache (2 bytes @ 0x200002A4) - Data: 00 00  returns 0x02 (0000ms, 1470ms total)
T353C 395:448 JLINK_ReadMemEx(0x200002E8, 0x0004 Bytes, ..., AccessWidth = 33554432)Mis-aligned memory read: Address: 0x200002E8, NumBytes: 4, Alignment: 2 (Halfword-aligned)
  ***** Mis-aligned memory read: Address: 0x200002E8, NumBytes: 4, Alignment: 2 (Halfword-aligned) -- Read from C cache (4 bytes @ 0x200002E8) - Data: 00 00 80 3F  returns 0x04 (0001ms, 1471ms total)
T353C 395:455 JLINK_ReadMemEx(0x200002CC, 0x0002 Bytes, ..., AccessWidth = 33554432)Mis-aligned memory read: Address: 0x200002CC, NumBytes: 2, Alignment: 2 (Halfword-aligned)
  ***** Mis-aligned memory read: Address: 0x200002CC, NumBytes: 2, Alignment: 2 (Halfword-aligned) -- Read from C cache (2 bytes @ 0x200002CC) - Data: 00 00  returns 0x02 (0000ms, 1471ms total)
T353C 395:462 JLINK_ReadMemEx(0x20000BEE, 0x0002 Bytes, ..., AccessWidth = 33554432)Mis-aligned memory read: Address: 0x20000BEE, NumBytes: 2, Alignment: 2 (Halfword-aligned)
  ***** Mis-aligned memory read: Address: 0x20000BEE, NumBytes: 2, Alignment: 2 (Halfword-aligned) -- CPU_ReadMem(64 bytes @ 0x20000BC0) -- Updating C cache (64 bytes @ 0x20000BC0) -- Read from C cache (2 bytes @ 0x20000BEE) - Data: 00 00  returns 0x02 (0002ms, 1473ms total)
T353C 395:501 JLINK_ReadMemEx(0x20000198, 0x0004 Bytes, ..., AccessWidth = 33554432)Mis-aligned memory read: Address: 0x20000198, NumBytes: 4, Alignment: 2 (Halfword-aligned)
  ***** Mis-aligned memory read: Address: 0x20000198, NumBytes: 4, Alignment: 2 (Halfword-aligned) -- CPU_ReadMem(64 bytes @ 0x20000180) -- Updating C cache (64 bytes @ 0x20000180) -- Read from C cache (4 bytes @ 0x20000198) - Data: 00 00 00 00  returns 0x04 (0002ms, 1475ms total)
T353C 395:602 JLINK_ReadMemEx(0x200002F8, 0x0002 Bytes, ..., AccessWidth = 33554432)Mis-aligned memory read: Address: 0x200002F8, NumBytes: 2, Alignment: 2 (Halfword-aligned)
  ***** Mis-aligned memory read: Address: 0x200002F8, NumBytes: 2, Alignment: 2 (Halfword-aligned) -- Read from C cache (2 bytes @ 0x200002F8) - Data: 00 00  returns 0x02 (0000ms, 1475ms total)
T353C 395:610 JLINK_ReadMemEx(0x20000BEC, 0x0002 Bytes, ..., AccessWidth = 33554432)Mis-aligned memory read: Address: 0x20000BEC, NumBytes: 2, Alignment: 2 (Halfword-aligned)
  ***** Mis-aligned memory read: Address: 0x20000BEC, NumBytes: 2, Alignment: 2 (Halfword-aligned) -- Read from C cache (2 bytes @ 0x20000BEC) - Data: 00 00  returns 0x02 (0000ms, 1475ms total)
T353C 395:618 JLINK_ReadMemEx(0x2000027C, 0x0002 Bytes, ..., AccessWidth = 33554432)Mis-aligned memory read: Address: 0x2000027C, NumBytes: 2, Alignment: 2 (Halfword-aligned)
  ***** Mis-aligned memory read: Address: 0x2000027C, NumBytes: 2, Alignment: 2 (Halfword-aligned) -- CPU_ReadMem(64 bytes @ 0x20000240) -- Updating C cache (64 bytes @ 0x20000240) -- Read from C cache (2 bytes @ 0x2000027C) - Data: 00 00  returns 0x02 (0002ms, 1477ms total)
T353C 395:628 JLINK_ReadMemEx(0x200000B8, 0x0004 Bytes, ..., AccessWidth = 33554432)Mis-aligned memory read: Address: 0x200000B8, NumBytes: 4, Alignment: 2 (Halfword-aligned)
  ***** Mis-aligned memory read: Address: 0x200000B8, NumBytes: 4, Alignment: 2 (Halfword-aligned) -- CPU_ReadMem(64 bytes @ 0x20000080) -- Updating C cache (64 bytes @ 0x20000080) -- Read from C cache (4 bytes @ 0x200000B8) - Data: 41 14 00 00  returns 0x04 (0001ms, 1478ms total)
T353C 395:640 JLINK_ReadMemEx(0x20000274, 0x0004 Bytes, ..., AccessWidth = 33554432)Mis-aligned memory read: Address: 0x20000274, NumBytes: 4, Alignment: 2 (Halfword-aligned)
  ***** Mis-aligned memory read: Address: 0x20000274, NumBytes: 4, Alignment: 2 (Halfword-aligned) -- Read from C cache (4 bytes @ 0x20000274) - Data: 00 00 00 00  returns 0x04 (0000ms, 1478ms total)
T353C 395:665 JLINK_ReadMemEx(0x20000758, 0x0004 Bytes, ..., AccessWidth = 33554432)Mis-aligned memory read: Address: 0x20000758, NumBytes: 4, Alignment: 2 (Halfword-aligned)
  ***** Mis-aligned memory read: Address: 0x20000758, NumBytes: 4, Alignment: 2 (Halfword-aligned) -- CPU_ReadMem(64 bytes @ 0x20000740) -- Updating C cache (64 bytes @ 0x20000740) -- Read from C cache (4 bytes @ 0x20000758) - Data: 80 47 4E C3  returns 0x04 (0001ms, 1479ms total)
T353C 395:668 JLINK_ReadMemEx(0x2000075C, 0x0004 Bytes, ..., AccessWidth = 33554432)Mis-aligned memory read: Address: 0x2000075C, NumBytes: 4, Alignment: 2 (Halfword-aligned)
  ***** Mis-aligned memory read: Address: 0x2000075C, NumBytes: 4, Alignment: 2 (Halfword-aligned) -- Read from C cache (4 bytes @ 0x2000075C) - Data: 27 52 65 41  returns 0x04 (0000ms, 1479ms total)
T353C 395:669 JLINK_ReadMemEx(0x200001FC, 0x0002 Bytes, ..., AccessWidth = 33554432)Mis-aligned memory read: Address: 0x200001FC, NumBytes: 2, Alignment: 2 (Halfword-aligned)
  ***** Mis-aligned memory read: Address: 0x200001FC, NumBytes: 2, Alignment: 2 (Halfword-aligned) -- Read from C cache (2 bytes @ 0x200001FC) - Data: 00 00  returns 0x02 (0000ms, 1479ms total)
T353C 395:670 JLINK_ReadMemEx(0x200001F8, 0x0004 Bytes, ..., AccessWidth = 33554432)Mis-aligned memory read: Address: 0x200001F8, NumBytes: 4, Alignment: 2 (Halfword-aligned)
  ***** Mis-aligned memory read: Address: 0x200001F8, NumBytes: 4, Alignment: 2 (Halfword-aligned) -- Read from C cache (4 bytes @ 0x200001F8) - Data: 00 00 00 00  returns 0x04 (0000ms, 1479ms total)
T353C 395:671 JLINK_ReadMemEx(0x2000042F, 0x0009 Bytes, ..., AccessWidth = 33554432)Mis-aligned memory read: Address: 0x2000042F, NumBytes: 9, Alignment: 2 (Halfword-aligned)
  ***** Mis-aligned memory read: Address: 0x2000042F, NumBytes: 9, Alignment: 2 (Halfword-aligned) -- CPU_ReadMem(64 bytes @ 0x20000400) -- Updating C cache (64 bytes @ 0x20000400) -- Read from C cache (9 bytes @ 0x2000042F) - Data: 00 00 00 00 00 00 00 00 00  returns 0x09 (0001ms, 1480ms total)
T353C 395:677 JLINK_ReadMemEx(0x20000746, 0x0001 Bytes, ..., AccessWidth = 33554432)Mis-aligned memory read: Address: 0x20000746, NumBytes: 1, Alignment: 2 (Halfword-aligned)
  ***** Mis-aligned memory read: Address: 0x20000746, NumBytes: 1, Alignment: 2 (Halfword-aligned) -- Read from C cache (1 bytes @ 0x20000746) - Data: 00  returns 0x01 (0000ms, 1480ms total)
T353C 395:678 JLINK_ReadMemEx(0x20000368, 0x0002 Bytes, ..., AccessWidth = 33554432)Mis-aligned memory read: Address: 0x20000368, NumBytes: 2, Alignment: 2 (Halfword-aligned)
  ***** Mis-aligned memory read: Address: 0x20000368, NumBytes: 2, Alignment: 2 (Halfword-aligned) -- CPU_ReadMem(64 bytes @ 0x20000340) -- Updating C cache (64 bytes @ 0x20000340) -- Read from C cache (2 bytes @ 0x20000368) - Data: F4 01  returns 0x02 (0002ms, 1482ms total)
T353C 395:681 JLINK_ReadMemEx(0x40000440, 0x0004 Bytes, ..., AccessWidth = 33554432)Mis-aligned memory read: Address: 0x40000440, NumBytes: 4, Alignment: 2 (Halfword-aligned)
  ***** Mis-aligned memory read: Address: 0x40000440, NumBytes: 4, Alignment: 2 (Halfword-aligned) -- CPU_ReadMem(4 bytes @ 0x40000440) - Data: 00 00 00 00  returns 0x04 (0001ms, 1483ms total)
T353C 395:682 JLINK_ReadMemEx(0x40000440, 0x0004 Bytes, ..., AccessWidth = 33554432)Mis-aligned memory read: Address: 0x40000440, NumBytes: 4, Alignment: 2 (Halfword-aligned)
  ***** Mis-aligned memory read: Address: 0x40000440, NumBytes: 4, Alignment: 2 (Halfword-aligned) -- CPU_ReadMem(4 bytes @ 0x40000440) - Data: 00 00 00 00  returns 0x04 (0001ms, 1484ms total)
T353C 395:683 JLINK_ReadMemEx(0x40000440, 0x0004 Bytes, ..., AccessWidth = 33554432)Mis-aligned memory read: Address: 0x40000440, NumBytes: 4, Alignment: 2 (Halfword-aligned)
  ***** Mis-aligned memory read: Address: 0x40000440, NumBytes: 4, Alignment: 2 (Halfword-aligned) -- CPU_ReadMem(4 bytes @ 0x40000440) - Data: 00 00 00 00  returns 0x04 (0000ms, 1484ms total)
T353C 395:685 JLINK_ReadMemEx(0x20000310, 0x0002 Bytes, ..., AccessWidth = 33554432)Mis-aligned memory read: Address: 0x20000310, NumBytes: 2, Alignment: 2 (Halfword-aligned)
  ***** Mis-aligned memory read: Address: 0x20000310, NumBytes: 2, Alignment: 2 (Halfword-aligned) -- CPU_ReadMem(64 bytes @ 0x20000300) -- Updating C cache (64 bytes @ 0x20000300) -- Read from C cache (2 bytes @ 0x20000310) - Data: 00 00  returns 0x02 (0001ms, 1485ms total)
T353C 395:688 JLINK_ReadMemEx(0x20000294, 0x0004 Bytes, ..., AccessWidth = 33554432)Mis-aligned memory read: Address: 0x20000294, NumBytes: 4, Alignment: 2 (Halfword-aligned)
  ***** Mis-aligned memory read: Address: 0x20000294, NumBytes: 4, Alignment: 2 (Halfword-aligned) -- Read from C cache (4 bytes @ 0x20000294) - Data: 01 00 00 00  returns 0x04 (0000ms, 1485ms total)
T353C 395:693 JLINK_ReadMemEx(0x200000BC, 0x0001 Bytes, ..., AccessWidth = 33554432)Mis-aligned memory read: Address: 0x200000BC, NumBytes: 1, Alignment: 2 (Halfword-aligned)
  ***** Mis-aligned memory read: Address: 0x200000BC, NumBytes: 1, Alignment: 2 (Halfword-aligned) -- Read from C cache (1 bytes @ 0x200000BC) - Data: 00  returns 0x01 (0000ms, 1485ms total)
T353C 395:695 JLINK_ReadMemEx(0x2000035C, 0x0002 Bytes, ..., AccessWidth = 33554432)Mis-aligned memory read: Address: 0x2000035C, NumBytes: 2, Alignment: 2 (Halfword-aligned)
  ***** Mis-aligned memory read: Address: 0x2000035C, NumBytes: 2, Alignment: 2 (Halfword-aligned) -- Read from C cache (2 bytes @ 0x2000035C) - Data: 00 00  returns 0x02 (0000ms, 1485ms total)
T43C8 395:739 JLINK_ReadMemEx(0x08000254, 0x0002 Bytes, ..., AccessWidth = 33554432)Mis-aligned memory read: Address: 0x08000254, NumBytes: 2, Alignment: 2 (Halfword-aligned)
  ***** Mis-aligned memory read: Address: 0x08000254, NumBytes: 2, Alignment: 2 (Halfword-aligned) -- Read from C cache (2 bytes @ 0x08000254) - Data: 06 48  returns 0x02 (0000ms, 1485ms total)
T43C8 395:739 JLINK_SetBPEx(Addr = 0x08007AF4, Type = 0xFFFFFFF2)  returns 0x00000001 (0000ms, 1485ms total)
T43C8 395:739 JLINK_SetBPEx(Addr = 0x08005CC4, Type = 0xFFFFFFF2)  returns 0x00000002 (0000ms, 1485ms total)
T43C8 395:739 JLINK_Go() -- CPU_WriteMem(4 bytes @ 0xE0002000) -- CPU_WriteMem(4 bytes @ 0xE0002000) -- CPU_ReadMem(4 bytes @ 0xE0001000) -- CPU_WriteMem(4 bytes @ 0xE0002008) -- CPU_WriteMem(4 bytes @ 0xE000200C) -- CPU_WriteMem(4 bytes @ 0xE0002010) -- CPU_WriteMem(4 bytes @ 0xE0002014) -- CPU_WriteMem(4 bytes @ 0xE0002018) -- CPU_WriteMem(4 bytes @ 0xE000201C) -- CPU_WriteMem(4 bytes @ 0xE0001004) (0005ms, 1490ms total)
T43C8 395:845 JLINK_IsHalted()  returns TRUE (0004ms, 1494ms total)
T43C8 395:849 JLINK_Halt()  returns 0x00 (0000ms, 1490ms total)
T43C8 395:849 JLINK_IsHalted()  returns TRUE (0000ms, 1490ms total)
T43C8 395:849 JLINK_IsHalted()  returns TRUE (0000ms, 1490ms total)
T43C8 395:849 JLINK_IsHalted()  returns TRUE (0000ms, 1490ms total)
T43C8 395:849 JLINK_ReadReg(R15 (PC))  returns 0x08007AF4 (0000ms, 1490ms total)
T43C8 395:849 JLINK_ReadReg(XPSR)  returns 0x61000000 (0000ms, 1490ms total)
T43C8 395:849 JLINK_ClrBPEx(BPHandle = 0x00000001)  returns 0x00 (0000ms, 1490ms total)
T43C8 395:849 JLINK_ClrBPEx(BPHandle = 0x00000002)  returns 0x00 (0000ms, 1490ms total)
T43C8 395:849 JLINK_ReadMemU32(0xE000ED30, 0x0001 Items, ...) -- CPU_ReadMem(4 bytes @ 0xE000ED30) - Data: 02 00 00 00  returns 0x01 (0001ms, 1491ms total)
T43C8 395:850 JLINK_ReadMemU32(0xE0001028, 0x0001 Items, ...) -- CPU_ReadMem(4 bytes @ 0xE0001028) - Data: 00 00 00 00  returns 0x01 (0000ms, 1491ms total)
T43C8 395:850 JLINK_ReadMemU32(0xE0001038, 0x0001 Items, ...) -- CPU_ReadMem(4 bytes @ 0xE0001038) - Data: 00 02 00 00  returns 0x01 (0001ms, 1492ms total)
T43C8 395:851 JLINK_ReadMemU32(0xE0001048, 0x0001 Items, ...) -- CPU_ReadMem(4 bytes @ 0xE0001048) - Data: 00 00 00 00  returns 0x01 (0000ms, 1492ms total)
T43C8 395:851 JLINK_ReadMemU32(0xE0001058, 0x0001 Items, ...) -- CPU_ReadMem(4 bytes @ 0xE0001058) - Data: 00 00 00 00  returns 0x01 (0001ms, 1493ms total)
T43C8 395:852 JLINK_ReadReg(R0)  returns 0x08007AF5 (0000ms, 1493ms total)
T43C8 395:852 JLINK_ReadReg(R1)  returns 0x20003AE0 (0000ms, 1493ms total)
T43C8 395:852 JLINK_ReadReg(R2)  returns 0x00000000 (0000ms, 1493ms total)
T43C8 395:852 JLINK_ReadReg(R3)  returns 0x080074F1 (0000ms, 1493ms total)
T43C8 395:852 JLINK_ReadReg(R4)  returns 0x08008F30 (0000ms, 1493ms total)
T43C8 395:852 JLINK_ReadReg(R5)  returns 0x08008F30 (0000ms, 1493ms total)
T43C8 395:852 JLINK_ReadReg(R6)  returns 0x00000000 (0000ms, 1493ms total)
T43C8 395:852 JLINK_ReadReg(R7)  returns 0x00000000 (0000ms, 1493ms total)
T43C8 395:852 JLINK_ReadReg(R8)  returns 0x00000000 (0000ms, 1493ms total)
T43C8 395:852 JLINK_ReadReg(R9)  returns 0x00000000 (0000ms, 1493ms total)
T43C8 395:852 JLINK_ReadReg(R10)  returns 0x00000000 (0000ms, 1493ms total)
T43C8 395:852 JLINK_ReadReg(R11)  returns 0x00000000 (0000ms, 1493ms total)
T43C8 395:852 JLINK_ReadReg(R12)  returns 0x00000000 (0000ms, 1493ms total)
T43C8 395:852 JLINK_ReadReg(R13 (SP))  returns 0x20003AE0 (0000ms, 1493ms total)
T43C8 395:852 JLINK_ReadReg(R14)  returns 0x080009B5 (0000ms, 1493ms total)
T43C8 395:852 JLINK_ReadReg(R15 (PC))  returns 0x08007AF4 (0000ms, 1493ms total)
T43C8 395:852 JLINK_ReadReg(XPSR)  returns 0x61000000 (0000ms, 1493ms total)
T43C8 395:852 JLINK_ReadReg(MSP)  returns 0x20003AE0 (0000ms, 1493ms total)
T43C8 395:852 JLINK_ReadReg(PSP)  returns 0x00000000 (0000ms, 1493ms total)
T43C8 395:852 JLINK_ReadReg(CFBP)  returns 0x00000000 (0000ms, 1493ms total)
T43C8 395:852 JLINK_ReadReg(FPSCR)  returns 0x00000000 (0008ms, 1501ms total)
T43C8 395:860 JLINK_ReadReg(FPS0)  returns 0x00000000 (0000ms, 1501ms total)
T43C8 395:860 JLINK_ReadReg(FPS1)  returns 0x00000000 (0000ms, 1501ms total)
T43C8 395:860 JLINK_ReadReg(FPS2)  returns 0x00000000 (0000ms, 1501ms total)
T43C8 395:860 JLINK_ReadReg(FPS3)  returns 0x00000000 (0000ms, 1501ms total)
T43C8 395:860 JLINK_ReadReg(FPS4)  returns 0x00000000 (0000ms, 1501ms total)
T43C8 395:860 JLINK_ReadReg(FPS5)  returns 0x00000000 (0000ms, 1501ms total)
T43C8 395:860 JLINK_ReadReg(FPS6)  returns 0x00000000 (0000ms, 1501ms total)
T43C8 395:860 JLINK_ReadReg(FPS7)  returns 0x00000000 (0000ms, 1501ms total)
T43C8 395:860 JLINK_ReadReg(FPS8)  returns 0x00000000 (0000ms, 1501ms total)
T43C8 395:860 JLINK_ReadReg(FPS9)  returns 0x00000000 (0000ms, 1501ms total)
T43C8 395:860 JLINK_ReadReg(FPS10)  returns 0x00000000 (0000ms, 1501ms total)
T43C8 395:860 JLINK_ReadReg(FPS11)  returns 0x00000000 (0000ms, 1501ms total)
T43C8 395:860 JLINK_ReadReg(FPS12)  returns 0x00000000 (0000ms, 1501ms total)
T43C8 395:860 JLINK_ReadReg(FPS13)  returns 0x00000000 (0000ms, 1501ms total)
T43C8 395:860 JLINK_ReadReg(FPS14)  returns 0x00000000 (0000ms, 1501ms total)
T43C8 395:860 JLINK_ReadReg(FPS15)  returns 0x00000000 (0000ms, 1501ms total)
T43C8 395:860 JLINK_ReadReg(FPS16)  returns 0x00000000 (0000ms, 1501ms total)
T43C8 395:860 JLINK_ReadReg(FPS17)  returns 0x00000000 (0000ms, 1501ms total)
T43C8 395:860 JLINK_ReadReg(FPS18)  returns 0x00000000 (0000ms, 1501ms total)
T43C8 395:860 JLINK_ReadReg(FPS19)  returns 0x00000000 (0000ms, 1501ms total)
T43C8 395:860 JLINK_ReadReg(FPS20)  returns 0x00000000 (0000ms, 1501ms total)
T43C8 395:860 JLINK_ReadReg(FPS21)  returns 0x00000000 (0000ms, 1501ms total)
T43C8 395:860 JLINK_ReadReg(FPS22)  returns 0x00000000 (0000ms, 1501ms total)
T43C8 395:860 JLINK_ReadReg(FPS23)  returns 0x00000000 (0000ms, 1501ms total)
T43C8 395:860 JLINK_ReadReg(FPS24)  returns 0x00000000 (0001ms, 1502ms total)
T43C8 395:861 JLINK_ReadReg(FPS25)  returns 0x00000000 (0000ms, 1502ms total)
T43C8 395:861 JLINK_ReadReg(FPS26)  returns 0x00000000 (0000ms, 1502ms total)
T43C8 395:861 JLINK_ReadReg(FPS27)  returns 0x00000000 (0000ms, 1502ms total)
T43C8 395:861 JLINK_ReadReg(FPS28)  returns 0x00000000 (0000ms, 1502ms total)
T43C8 395:861 JLINK_ReadReg(FPS29)  returns 0x00000000 (0000ms, 1502ms total)
T43C8 395:861 JLINK_ReadReg(FPS30)  returns 0x00000000 (0000ms, 1502ms total)
T43C8 395:861 JLINK_ReadReg(FPS31)  returns 0x00000000 (0000ms, 1502ms total)
T353C 395:863 JLINK_ReadMemEx(0x200002A8, 0x0004 Bytes, ..., AccessWidth = 33554432)Mis-aligned memory read: Address: 0x200002A8, NumBytes: 4, Alignment: 2 (Halfword-aligned)
  ***** Mis-aligned memory read: Address: 0x200002A8, NumBytes: 4, Alignment: 2 (Halfword-aligned) -- CPU_ReadMem(64 bytes @ 0x20000280) -- Updating C cache (64 bytes @ 0x20000280) -- Read from C cache (4 bytes @ 0x200002A8) - Data: 00 00 00 00  returns 0x04 (0001ms, 1503ms total)
T353C 395:864 JLINK_ReadMemEx(0x200001EC, 0x0004 Bytes, ..., AccessWidth = 33554432)Mis-aligned memory read: Address: 0x200001EC, NumBytes: 4, Alignment: 2 (Halfword-aligned)
  ***** Mis-aligned memory read: Address: 0x200001EC, NumBytes: 4, Alignment: 2 (Halfword-aligned) -- CPU_ReadMem(64 bytes @ 0x200001C0) -- Updating C cache (64 bytes @ 0x200001C0) -- Read from C cache (4 bytes @ 0x200001EC) - Data: 00 00 00 00  returns 0x04 (0001ms, 1504ms total)
T353C 395:865 JLINK_ReadMemEx(0x200001F0, 0x0004 Bytes, ..., AccessWidth = 33554432)Mis-aligned memory read: Address: 0x200001F0, NumBytes: 4, Alignment: 2 (Halfword-aligned)
  ***** Mis-aligned memory read: Address: 0x200001F0, NumBytes: 4, Alignment: 2 (Halfword-aligned) -- Read from C cache (4 bytes @ 0x200001F0) - Data: 00 00 00 00  returns 0x04 (0000ms, 1504ms total)
T353C 395:865 JLINK_ReadMemEx(0x20000604, 0x0004 Bytes, ..., AccessWidth = 33554432)Mis-aligned memory read: Address: 0x20000604, NumBytes: 4, Alignment: 2 (Halfword-aligned)
  ***** Mis-aligned memory read: Address: 0x20000604, NumBytes: 4, Alignment: 2 (Halfword-aligned) -- CPU_ReadMem(64 bytes @ 0x20000600) -- Updating C cache (64 bytes @ 0x20000600) -- Read from C cache (4 bytes @ 0x20000604) - Data: 00 00 00 00  returns 0x04 (0002ms, 1506ms total)
T353C 395:867 JLINK_ReadMemEx(0x20000608, 0x0004 Bytes, ..., AccessWidth = 33554432)Mis-aligned memory read: Address: 0x20000608, NumBytes: 4, Alignment: 2 (Halfword-aligned)
  ***** Mis-aligned memory read: Address: 0x20000608, NumBytes: 4, Alignment: 2 (Halfword-aligned) -- Read from C cache (4 bytes @ 0x20000608) - Data: 00 00 00 00  returns 0x04 (0000ms, 1506ms total)
T353C 395:867 JLINK_ReadMemEx(0x200002BC, 0x0004 Bytes, ..., AccessWidth = 33554432)Mis-aligned memory read: Address: 0x200002BC, NumBytes: 4, Alignment: 2 (Halfword-aligned)
  ***** Mis-aligned memory read: Address: 0x200002BC, NumBytes: 4, Alignment: 2 (Halfword-aligned) -- Read from C cache (4 bytes @ 0x200002BC) - Data: 00 00 00 00  returns 0x04 (0000ms, 1506ms total)
T353C 395:867 JLINK_ReadMemEx(0x200002C0, 0x0004 Bytes, ..., AccessWidth = 33554432)Mis-aligned memory read: Address: 0x200002C0, NumBytes: 4, Alignment: 2 (Halfword-aligned)
  ***** Mis-aligned memory read: Address: 0x200002C0, NumBytes: 4, Alignment: 2 (Halfword-aligned) -- CPU_ReadMem(64 bytes @ 0x200002C0) -- Updating C cache (64 bytes @ 0x200002C0) -- Read from C cache (4 bytes @ 0x200002C0) - Data: 00 00 00 00  returns 0x04 (0002ms, 1508ms total)
T353C 395:869 JLINK_ReadMemEx(0x200002AC, 0x0004 Bytes, ..., AccessWidth = 33554432)Mis-aligned memory read: Address: 0x200002AC, NumBytes: 4, Alignment: 2 (Halfword-aligned)
  ***** Mis-aligned memory read: Address: 0x200002AC, NumBytes: 4, Alignment: 2 (Halfword-aligned) -- Read from C cache (4 bytes @ 0x200002AC) - Data: 00 00 00 00  returns 0x04 (0000ms, 1508ms total)
T353C 395:869 JLINK_ReadMemEx(0x200002D0, 0x0004 Bytes, ..., AccessWidth = 33554432)Mis-aligned memory read: Address: 0x200002D0, NumBytes: 4, Alignment: 2 (Halfword-aligned)
  ***** Mis-aligned memory read: Address: 0x200002D0, NumBytes: 4, Alignment: 2 (Halfword-aligned) -- Read from C cache (4 bytes @ 0x200002D0) - Data: 00 00 00 00  returns 0x04 (0000ms, 1508ms total)
T353C 395:869 JLINK_ReadMemEx(0x200002A4, 0x0002 Bytes, ..., AccessWidth = 33554432)Mis-aligned memory read: Address: 0x200002A4, NumBytes: 2, Alignment: 2 (Halfword-aligned)
  ***** Mis-aligned memory read: Address: 0x200002A4, NumBytes: 2, Alignment: 2 (Halfword-aligned) -- Read from C cache (2 bytes @ 0x200002A4) - Data: 00 00  returns 0x02 (0001ms, 1509ms total)
T353C 395:870 JLINK_ReadMemEx(0x200002E8, 0x0004 Bytes, ..., AccessWidth = 33554432)Mis-aligned memory read: Address: 0x200002E8, NumBytes: 4, Alignment: 2 (Halfword-aligned)
  ***** Mis-aligned memory read: Address: 0x200002E8, NumBytes: 4, Alignment: 2 (Halfword-aligned) -- Read from C cache (4 bytes @ 0x200002E8) - Data: 00 00 80 3F  returns 0x04 (0000ms, 1509ms total)
T353C 395:870 JLINK_ReadMemEx(0x200002CC, 0x0002 Bytes, ..., AccessWidth = 33554432)Mis-aligned memory read: Address: 0x200002CC, NumBytes: 2, Alignment: 2 (Halfword-aligned)
  ***** Mis-aligned memory read: Address: 0x200002CC, NumBytes: 2, Alignment: 2 (Halfword-aligned) -- Read from C cache (2 bytes @ 0x200002CC) - Data: 00 00  returns 0x02 (0000ms, 1509ms total)
T353C 395:870 JLINK_ReadMemEx(0x20000BEE, 0x0002 Bytes, ..., AccessWidth = 33554432)Mis-aligned memory read: Address: 0x20000BEE, NumBytes: 2, Alignment: 2 (Halfword-aligned)
  ***** Mis-aligned memory read: Address: 0x20000BEE, NumBytes: 2, Alignment: 2 (Halfword-aligned) -- CPU_ReadMem(64 bytes @ 0x20000BC0) -- Updating C cache (64 bytes @ 0x20000BC0) -- Read from C cache (2 bytes @ 0x20000BEE) - Data: 00 00  returns 0x02 (0001ms, 1510ms total)
T353C 395:871 JLINK_ReadMemEx(0x20000198, 0x0004 Bytes, ..., AccessWidth = 33554432)Mis-aligned memory read: Address: 0x20000198, NumBytes: 4, Alignment: 2 (Halfword-aligned)
  ***** Mis-aligned memory read: Address: 0x20000198, NumBytes: 4, Alignment: 2 (Halfword-aligned) -- CPU_ReadMem(64 bytes @ 0x20000180) -- Updating C cache (64 bytes @ 0x20000180) -- Read from C cache (4 bytes @ 0x20000198) - Data: 00 00 00 00  returns 0x04 (0002ms, 1512ms total)
T353C 395:873 JLINK_ReadMemEx(0x200002F8, 0x0002 Bytes, ..., AccessWidth = 33554432)Mis-aligned memory read: Address: 0x200002F8, NumBytes: 2, Alignment: 2 (Halfword-aligned)
  ***** Mis-aligned memory read: Address: 0x200002F8, NumBytes: 2, Alignment: 2 (Halfword-aligned) -- Read from C cache (2 bytes @ 0x200002F8) - Data: 00 00  returns 0x02 (0000ms, 1512ms total)
T353C 395:873 JLINK_ReadMemEx(0x20000BEC, 0x0002 Bytes, ..., AccessWidth = 33554432)Mis-aligned memory read: Address: 0x20000BEC, NumBytes: 2, Alignment: 2 (Halfword-aligned)
  ***** Mis-aligned memory read: Address: 0x20000BEC, NumBytes: 2, Alignment: 2 (Halfword-aligned) -- Read from C cache (2 bytes @ 0x20000BEC) - Data: 00 00  returns 0x02 (0000ms, 1512ms total)
T353C 395:873 JLINK_ReadMemEx(0x2000027C, 0x0002 Bytes, ..., AccessWidth = 33554432)Mis-aligned memory read: Address: 0x2000027C, NumBytes: 2, Alignment: 2 (Halfword-aligned)
  ***** Mis-aligned memory read: Address: 0x2000027C, NumBytes: 2, Alignment: 2 (Halfword-aligned) -- CPU_ReadMem(64 bytes @ 0x20000240) -- Updating C cache (64 bytes @ 0x20000240) -- Read from C cache (2 bytes @ 0x2000027C) - Data: 00 00  returns 0x02 (0001ms, 1513ms total)
T353C 395:874 JLINK_ReadMemEx(0x200000B8, 0x0004 Bytes, ..., AccessWidth = 33554432)Mis-aligned memory read: Address: 0x200000B8, NumBytes: 4, Alignment: 2 (Halfword-aligned)
  ***** Mis-aligned memory read: Address: 0x200000B8, NumBytes: 4, Alignment: 2 (Halfword-aligned) -- CPU_ReadMem(64 bytes @ 0x20000080) -- Updating C cache (64 bytes @ 0x20000080) -- Read from C cache (4 bytes @ 0x200000B8) - Data: 00 00 00 00  returns 0x04 (0001ms, 1514ms total)
T353C 395:875 JLINK_ReadMemEx(0x20000274, 0x0004 Bytes, ..., AccessWidth = 33554432)Mis-aligned memory read: Address: 0x20000274, NumBytes: 4, Alignment: 2 (Halfword-aligned)
  ***** Mis-aligned memory read: Address: 0x20000274, NumBytes: 4, Alignment: 2 (Halfword-aligned) -- Read from C cache (4 bytes @ 0x20000274) - Data: 00 00 00 00  returns 0x04 (0000ms, 1514ms total)
T353C 395:875 JLINK_ReadMemEx(0x20000758, 0x0004 Bytes, ..., AccessWidth = 33554432)Mis-aligned memory read: Address: 0x20000758, NumBytes: 4, Alignment: 2 (Halfword-aligned)
  ***** Mis-aligned memory read: Address: 0x20000758, NumBytes: 4, Alignment: 2 (Halfword-aligned) -- CPU_ReadMem(64 bytes @ 0x20000740) -- Updating C cache (64 bytes @ 0x20000740) -- Read from C cache (4 bytes @ 0x20000758) - Data: 00 00 00 00  returns 0x04 (0002ms, 1516ms total)
T353C 395:877 JLINK_ReadMemEx(0x2000075C, 0x0004 Bytes, ..., AccessWidth = 33554432)Mis-aligned memory read: Address: 0x2000075C, NumBytes: 4, Alignment: 2 (Halfword-aligned)
  ***** Mis-aligned memory read: Address: 0x2000075C, NumBytes: 4, Alignment: 2 (Halfword-aligned) -- Read from C cache (4 bytes @ 0x2000075C) - Data: 00 00 00 00  returns 0x04 (0000ms, 1516ms total)
T353C 395:877 JLINK_ReadMemEx(0x200001FC, 0x0002 Bytes, ..., AccessWidth = 33554432)Mis-aligned memory read: Address: 0x200001FC, NumBytes: 2, Alignment: 2 (Halfword-aligned)
  ***** Mis-aligned memory read: Address: 0x200001FC, NumBytes: 2, Alignment: 2 (Halfword-aligned) -- Read from C cache (2 bytes @ 0x200001FC) - Data: 00 00  returns 0x02 (0000ms, 1516ms total)
T353C 395:877 JLINK_ReadMemEx(0x200001F8, 0x0004 Bytes, ..., AccessWidth = 33554432)Mis-aligned memory read: Address: 0x200001F8, NumBytes: 4, Alignment: 2 (Halfword-aligned)
  ***** Mis-aligned memory read: Address: 0x200001F8, NumBytes: 4, Alignment: 2 (Halfword-aligned) -- Read from C cache (4 bytes @ 0x200001F8) - Data: 00 00 00 00  returns 0x04 (0000ms, 1516ms total)
T353C 395:877 JLINK_ReadMemEx(0x2000042F, 0x0009 Bytes, ..., AccessWidth = 33554432)Mis-aligned memory read: Address: 0x2000042F, NumBytes: 9, Alignment: 2 (Halfword-aligned)
  ***** Mis-aligned memory read: Address: 0x2000042F, NumBytes: 9, Alignment: 2 (Halfword-aligned) -- CPU_ReadMem(64 bytes @ 0x20000400) -- Updating C cache (64 bytes @ 0x20000400) -- Read from C cache (9 bytes @ 0x2000042F) - Data: 00 00 00 00 00 00 00 00 00  returns 0x09 (0001ms, 1517ms total)
T353C 395:878 JLINK_ReadMemEx(0x20000746, 0x0001 Bytes, ..., AccessWidth = 33554432)Mis-aligned memory read: Address: 0x20000746, NumBytes: 1, Alignment: 2 (Halfword-aligned)
  ***** Mis-aligned memory read: Address: 0x20000746, NumBytes: 1, Alignment: 2 (Halfword-aligned) -- Read from C cache (1 bytes @ 0x20000746) - Data: 00  returns 0x01 (0000ms, 1517ms total)
T353C 395:878 JLINK_ReadMemEx(0x20000368, 0x0002 Bytes, ..., AccessWidth = 33554432)Mis-aligned memory read: Address: 0x20000368, NumBytes: 2, Alignment: 2 (Halfword-aligned)
  ***** Mis-aligned memory read: Address: 0x20000368, NumBytes: 2, Alignment: 2 (Halfword-aligned) -- CPU_ReadMem(64 bytes @ 0x20000340) -- Updating C cache (64 bytes @ 0x20000340) -- Read from C cache (2 bytes @ 0x20000368) - Data: F4 01  returns 0x02 (0001ms, 1518ms total)
T353C 395:879 JLINK_ReadMemEx(0x40000440, 0x0004 Bytes, ..., AccessWidth = 33554432)Mis-aligned memory read: Address: 0x40000440, NumBytes: 4, Alignment: 2 (Halfword-aligned)
  ***** Mis-aligned memory read: Address: 0x40000440, NumBytes: 4, Alignment: 2 (Halfword-aligned) -- CPU_ReadMem(4 bytes @ 0x40000440) - Data: 00 00 00 00  returns 0x04 (0000ms, 1518ms total)
T353C 395:879 JLINK_ReadMemEx(0x20000310, 0x0002 Bytes, ..., AccessWidth = 33554432)Mis-aligned memory read: Address: 0x20000310, NumBytes: 2, Alignment: 2 (Halfword-aligned)
  ***** Mis-aligned memory read: Address: 0x20000310, NumBytes: 2, Alignment: 2 (Halfword-aligned) -- CPU_ReadMem(64 bytes @ 0x20000300) -- Updating C cache (64 bytes @ 0x20000300) -- Read from C cache (2 bytes @ 0x20000310) - Data: 00 00  returns 0x02 (0001ms, 1519ms total)
T353C 395:881 JLINK_ReadMemEx(0x20000294, 0x0004 Bytes, ..., AccessWidth = 33554432)Mis-aligned memory read: Address: 0x20000294, NumBytes: 4, Alignment: 2 (Halfword-aligned)
  ***** Mis-aligned memory read: Address: 0x20000294, NumBytes: 4, Alignment: 2 (Halfword-aligned) -- Read from C cache (4 bytes @ 0x20000294) - Data: 01 00 00 00  returns 0x04 (0000ms, 1519ms total)
T353C 395:881 JLINK_ReadMemEx(0x200000BC, 0x0001 Bytes, ..., AccessWidth = 33554432)Mis-aligned memory read: Address: 0x200000BC, NumBytes: 1, Alignment: 2 (Halfword-aligned)
  ***** Mis-aligned memory read: Address: 0x200000BC, NumBytes: 1, Alignment: 2 (Halfword-aligned) -- Read from C cache (1 bytes @ 0x200000BC) - Data: 00  returns 0x01 (0000ms, 1519ms total)
T353C 395:881 JLINK_ReadMemEx(0x2000035C, 0x0002 Bytes, ..., AccessWidth = 33554432)Mis-aligned memory read: Address: 0x2000035C, NumBytes: 2, Alignment: 2 (Halfword-aligned)
  ***** Mis-aligned memory read: Address: 0x2000035C, NumBytes: 2, Alignment: 2 (Halfword-aligned) -- Read from C cache (2 bytes @ 0x2000035C) - Data: 00 00  returns 0x02 (0000ms, 1519ms total)
T353C 395:881 JLINK_ReadMemEx(0x080079F4, 0x003C Bytes, ..., AccessWidth = 33554432)Mis-aligned memory read: Address: 0x080079F4, NumBytes: 60, Alignment: 2 (Halfword-aligned)
  ***** Mis-aligned memory read: Address: 0x080079F4, NumBytes: 60, Alignment: 2 (Halfword-aligned) -- CPU_ReadMem(128 bytes @ 0x080079C0) -- Updating C cache (128 bytes @ 0x080079C0) -- Read from C cache (60 bytes @ 0x080079F4) - Data: 01 EE 20 0A C6 EB C6 00 01 EB 80 00 00 EB 87 00 ...  returns 0x3C (0002ms, 1521ms total)
T353C 395:883 JLINK_ReadMemEx(0x08007A30, 0x003C Bytes, ..., AccessWidth = 33554432)Mis-aligned memory read: Address: 0x08007A30, NumBytes: 60, Alignment: 2 (Halfword-aligned)
  ***** Mis-aligned memory read: Address: 0x08007A30, NumBytes: 60, Alignment: 2 (Halfword-aligned) -- CPU_ReadMem(64 bytes @ 0x08007A40) -- Updating C cache (64 bytes @ 0x08007A40) -- Read from C cache (60 bytes @ 0x08007A30) - Data: C4 00 01 EB 80 00 00 EB 87 00 D0 ED 00 0A 2A EE ...  returns 0x3C (0002ms, 1523ms total)
T353C 395:885 JLINK_ReadMemEx(0x08007A6C, 0x003C Bytes, ..., AccessWidth = 33554432)Mis-aligned memory read: Address: 0x08007A6C, NumBytes: 60, Alignment: 2 (Halfword-aligned)
  ***** Mis-aligned memory read: Address: 0x08007A6C, NumBytes: 60, Alignment: 2 (Halfword-aligned) -- CPU_ReadMem(64 bytes @ 0x08007A80) -- Updating C cache (64 bytes @ 0x08007A80) -- Read from C cache (60 bytes @ 0x08007A6C) - Data: 00 0A 29 EE 29 1A 01 EE 20 0A 88 ED 0B 0A C4 EB ...  returns 0x3C (0001ms, 1524ms total)
T353C 395:886 JLINK_ReadMemEx(0x08007AA8, 0x003C Bytes, ..., AccessWidth = 33554432)Mis-aligned memory read: Address: 0x08007AA8, NumBytes: 60, Alignment: 2 (Halfword-aligned)
  ***** Mis-aligned memory read: Address: 0x08007AA8, NumBytes: 60, Alignment: 2 (Halfword-aligned) -- CPU_ReadMem(64 bytes @ 0x08007AC0) -- Updating C cache (64 bytes @ 0x08007AC0) -- Read from C cache (60 bytes @ 0x08007AA8) - Data: 01 EE 20 0A C6 EB C6 00 01 EB 80 00 00 EB 85 00 ...  returns 0x3C (0001ms, 1525ms total)
T353C 395:887 JLINK_ReadMemEx(0x08007AE4, 0x003C Bytes, ..., AccessWidth = 33554432)Mis-aligned memory read: Address: 0x08007AE4, NumBytes: 60, Alignment: 2 (Halfword-aligned)
  ***** Mis-aligned memory read: Address: 0x08007AE4, NumBytes: 60, Alignment: 2 (Halfword-aligned) -- CPU_ReadMem(64 bytes @ 0x08007B00) -- Updating C cache (64 bytes @ 0x08007B00) -- Read from C cache (60 bytes @ 0x08007AE4) - Data: BD E8 F0 81 40 88 00 08 04 89 00 08 C8 89 00 08 ...  returns 0x3C (0001ms, 1526ms total)
T43C8 397:013 JLINK_ReadMemEx(0x08007AF4, 0x0002 Bytes, ..., AccessWidth = 33554432)Mis-aligned memory read: Address: 0x08007AF4, NumBytes: 2, Alignment: 2 (Halfword-aligned)
  ***** Mis-aligned memory read: Address: 0x08007AF4, NumBytes: 2, Alignment: 2 (Halfword-aligned) -- Read from C cache (2 bytes @ 0x08007AF4) - Data: FD F7  returns 0x02 (0002ms, 1528ms total)
T43C8 397:015 JLINK_SetBPEx(Addr = 0x08005CC4, Type = 0xFFFFFFF2)  returns 0x00000003 (0000ms, 1528ms total)
T43C8 397:015 JLINK_Go() -- CPU_WriteMem(4 bytes @ 0xE0002000) -- CPU_ReadMem(4 bytes @ 0xE0001000) -- CPU_WriteMem(4 bytes @ 0xE0002008) -- CPU_WriteMem(4 bytes @ 0xE000200C) (0004ms, 1532ms total)
T43C8 397:119 JLINK_IsHalted()  returns FALSE (0001ms, 1533ms total)
T43C8 397:220 JLINK_IsHalted()  returns FALSE (0001ms, 1533ms total)
T43C8 397:322 JLINK_IsHalted()  returns FALSE (0001ms, 1533ms total)
T43C8 397:424 JLINK_IsHalted()  returns FALSE (0000ms, 1532ms total)
T43C8 397:525 JLINK_IsHalted()  returns FALSE (0000ms, 1532ms total)
T43C8 397:626 JLINK_ReadMemU32(0xE0001004, 0x0001 Items, ...) -- CPU is running -- CPU_ReadMem(4 bytes @ 0xE0001004) - Data: 98 A6 17 06  returns 0x01 (0001ms, 1533ms total)
T353C 397:627 JLINK_ReadMemEx(0x200002A8, 0x0004 Bytes, ..., AccessWidth = 33554432)Mis-aligned memory read: Address: 0x200002A8, NumBytes: 4, Alignment: 2 (Halfword-aligned)
